!Agilent Technologies,N5230C,MY48100395,A.09.33.09
!Agilent N5230C: A.09.33.09
!Date: Monday, November 09, 2020 14:38:01
!Correction: S11(Full 1 Port(1)) 
!S21(Off) 
!S12(Off) 
!S22(Off) 
!S2P File: Measurements: S11, S21, S12, S22:
# Hz S  dB   R 50
11000000000 -0.094848335 41.240887 -200 45 -200 45 -200 45
11000112500 -0.13497835 40.929798 -200 45 -200 45 -200 45
11000225000 -0.097464733 40.8578 -200 45 -200 45 -200 45
11000337500 -0.10899696 40.746761 -200 45 -200 45 -200 45
11000450000 -0.14610109 40.804707 -200 45 -200 45 -200 45
11000562500 -0.14342193 40.827175 -200 45 -200 45 -200 45
11000675000 -0.1044606 40.563 -200 45 -200 45 -200 45
11000787500 -0.13041593 40.478325 -200 45 -200 45 -200 45
11000900000 -0.1360151 40.423466 -200 45 -200 45 -200 45
11001012500 -0.11908904 40.403553 -200 45 -200 45 -200 45
11001125000 -0.11435141 40.441032 -200 45 -200 45 -200 45
11001237500 -0.10845059 40.391918 -200 45 -200 45 -200 45
11001350000 -0.1500838 40.117325 -200 45 -200 45 -200 45
11001462500 -0.12674592 40.061943 -200 45 -200 45 -200 45
11001575000 -0.09770292 40.037502 -200 45 -200 45 -200 45
11001687500 -0.15165655 39.906704 -200 45 -200 45 -200 45
11001800000 -0.15431948 39.595131 -200 45 -200 45 -200 45
11001912500 -0.1556723 39.594551 -200 45 -200 45 -200 45
11002025000 -0.14349763 39.779503 -200 45 -200 45 -200 45
11002137500 -0.14135236 39.40469 -200 45 -200 45 -200 45
11002250000 -0.12824647 39.453442 -200 45 -200 45 -200 45
11002362500 -0.16254331 39.393875 -200 45 -200 45 -200 45
11002475000 -0.12243667 39.431019 -200 45 -200 45 -200 45
11002587500 -0.14367719 39.268936 -200 45 -200 45 -200 45
11002700000 -0.1311558 39.253746 -200 45 -200 45 -200 45
11002812500 -0.12977473 39.031555 -200 45 -200 45 -200 45
11002925000 -0.1313111 39.240116 -200 45 -200 45 -200 45
11003037500 -0.13276415 38.983685 -200 45 -200 45 -200 45
11003150000 -0.10875835 38.887051 -200 45 -200 45 -200 45
11003262500 -0.12585951 38.835094 -200 45 -200 45 -200 45
11003375000 -0.10795464 38.876316 -200 45 -200 45 -200 45
11003487500 -0.16840601 38.90992 -200 45 -200 45 -200 45
11003600000 -0.12249961 38.672806 -200 45 -200 45 -200 45
11003712500 -0.11549214 38.497658 -200 45 -200 45 -200 45
11003825000 -0.062480114 38.319122 -200 45 -200 45 -200 45
11003937500 -0.16093481 38.523357 -200 45 -200 45 -200 45
11004050000 -0.10529152 38.364471 -200 45 -200 45 -200 45
11004162500 -0.152281 38.044285 -200 45 -200 45 -200 45
11004275000 -0.12662053 38.214191 -200 45 -200 45 -200 45
11004387500 -0.11677839 38.360462 -200 45 -200 45 -200 45
11004500000 -0.14301468 37.818787 -200 45 -200 45 -200 45
11004612500 -0.12202261 37.835747 -200 45 -200 45 -200 45
11004725000 -0.13599937 37.882172 -200 45 -200 45 -200 45
11004837500 -0.1160931 37.866154 -200 45 -200 45 -200 45
11004950000 -0.13541405 37.546448 -200 45 -200 45 -200 45
11005062500 -0.15327665 37.673798 -200 45 -200 45 -200 45
11005175000 -0.14814778 37.412697 -200 45 -200 45 -200 45
11005287500 -0.15275036 37.41209 -200 45 -200 45 -200 45
11005400000 -0.095431626 37.424622 -200 45 -200 45 -200 45
11005512500 -0.1164543 37.063873 -200 45 -200 45 -200 45
11005625000 -0.13737284 36.904312 -200 45 -200 45 -200 45
11005737500 -0.13558479 37.012615 -200 45 -200 45 -200 45
11005850000 -0.13363522 36.977261 -200 45 -200 45 -200 45
11005962500 -0.166495 37.104073 -200 45 -200 45 -200 45
11006075000 -0.11525824 36.956047 -200 45 -200 45 -200 45
11006187500 -0.092169471 36.723694 -200 45 -200 45 -200 45
11006300000 -0.078078076 36.980934 -200 45 -200 45 -200 45
11006412500 -0.11866987 36.779697 -200 45 -200 45 -200 45
11006525000 -0.11073703 36.329792 -200 45 -200 45 -200 45
11006637500 -0.12952968 36.316189 -200 45 -200 45 -200 45
11006750000 -0.068288229 36.500622 -200 45 -200 45 -200 45
11006862500 -0.087493412 36.376289 -200 45 -200 45 -200 45
11006975000 -0.12178414 36.123478 -200 45 -200 45 -200 45
11007087500 -0.092279173 36.230389 -200 45 -200 45 -200 45
11007200000 -0.12326588 36.056866 -200 45 -200 45 -200 45
11007312500 -0.11193748 36.063545 -200 45 -200 45 -200 45
11007425000 -0.1344118 35.877205 -200 45 -200 45 -200 45
11007537500 -0.17536967 35.775719 -200 45 -200 45 -200 45
11007650000 -0.12400076 35.520096 -200 45 -200 45 -200 45
11007762500 -0.098953463 35.729855 -200 45 -200 45 -200 45
11007875000 -0.13058324 35.711563 -200 45 -200 45 -200 45
11007987500 -0.11631802 35.432732 -200 45 -200 45 -200 45
11008100000 -0.13715942 35.414146 -200 45 -200 45 -200 45
11008212500 -0.13052396 35.350964 -200 45 -200 45 -200 45
11008325000 -0.13845018 35.148548 -200 45 -200 45 -200 45
11008437500 -0.10280182 35.459595 -200 45 -200 45 -200 45
11008550000 -0.16777901 35.025742 -200 45 -200 45 -200 45
11008662500 -0.12203142 34.994343 -200 45 -200 45 -200 45
11008775000 -0.1375327 34.959202 -200 45 -200 45 -200 45
11008887500 -0.10298962 34.86591 -200 45 -200 45 -200 45
11009000000 -0.14415531 35.001293 -200 45 -200 45 -200 45
11009112500 -0.099725336 34.930126 -200 45 -200 45 -200 45
11009225000 -0.11283568 34.573124 -200 45 -200 45 -200 45
11009337500 -0.14473173 34.732182 -200 45 -200 45 -200 45
11009450000 -0.10522624 34.522736 -200 45 -200 45 -200 45
11009562500 -0.12510966 34.301193 -200 45 -200 45 -200 45
11009675000 -0.13559833 34.317574 -200 45 -200 45 -200 45
11009787500 -0.11198648 34.354774 -200 45 -200 45 -200 45
11009900000 -0.11824416 34.13596 -200 45 -200 45 -200 45
11010012500 -0.10195867 34.078434 -200 45 -200 45 -200 45
11010125000 -0.15215212 33.969902 -200 45 -200 45 -200 45
11010237500 -0.10369926 34.047504 -200 45 -200 45 -200 45
11010350000 -0.10648666 33.968452 -200 45 -200 45 -200 45
11010462500 -0.13552451 33.776501 -200 45 -200 45 -200 45
11010575000 -0.12271184 33.631329 -200 45 -200 45 -200 45
11010687500 -0.10654801 33.75655 -200 45 -200 45 -200 45
11010800000 -0.1192107 33.409149 -200 45 -200 45 -200 45
11010912500 -0.13200898 33.342255 -200 45 -200 45 -200 45
11011025000 -0.14083458 33.434429 -200 45 -200 45 -200 45
11011137500 -0.12492081 33.254097 -200 45 -200 45 -200 45
11011250000 -0.13042051 33.194221 -200 45 -200 45 -200 45
11011362500 -0.094591066 33.126228 -200 45 -200 45 -200 45
11011475000 -0.10559607 33.202995 -200 45 -200 45 -200 45
11011587500 -0.099672757 32.799946 -200 45 -200 45 -200 45
11011700000 -0.12393286 32.810188 -200 45 -200 45 -200 45
11011812500 -0.10822279 32.826488 -200 45 -200 45 -200 45
11011925000 -0.12160741 32.68362 -200 45 -200 45 -200 45
11012037500 -0.14101924 32.840466 -200 45 -200 45 -200 45
11012150000 -0.11376557 32.531078 -200 45 -200 45 -200 45
11012262500 -0.12276152 32.542511 -200 45 -200 45 -200 45
11012375000 -0.11915717 32.536213 -200 45 -200 45 -200 45
11012487500 -0.11472862 32.312489 -200 45 -200 45 -200 45
11012600000 -0.14127557 32.303696 -200 45 -200 45 -200 45
11012712500 -0.14968441 32.074162 -200 45 -200 45 -200 45
11012825000 -0.12036906 32.169228 -200 45 -200 45 -200 45
11012937500 -0.1413804 32.025158 -200 45 -200 45 -200 45
11013050000 -0.13930026 32.045574 -200 45 -200 45 -200 45
11013162500 -0.12283488 31.893528 -200 45 -200 45 -200 45
11013275000 -0.11407991 31.73279 -200 45 -200 45 -200 45
11013387500 -0.11236328 31.645927 -200 45 -200 45 -200 45
11013500000 -0.10305965 31.795654 -200 45 -200 45 -200 45
11013612500 -0.12315503 31.579268 -200 45 -200 45 -200 45
11013725000 -0.1111761 31.552937 -200 45 -200 45 -200 45
11013837500 -0.11998881 31.416788 -200 45 -200 45 -200 45
11013950000 -0.097875968 31.289568 -200 45 -200 45 -200 45
11014062500 -0.15632257 31.010988 -200 45 -200 45 -200 45
11014175000 -0.1506829 31.150406 -200 45 -200 45 -200 45
11014287500 -0.12329983 30.96937 -200 45 -200 45 -200 45
11014400000 -0.13157852 31.099789 -200 45 -200 45 -200 45
11014512500 -0.1078392 31.109907 -200 45 -200 45 -200 45
11014625000 -0.11132869 30.768507 -200 45 -200 45 -200 45
11014737500 -0.12626649 30.70726 -200 45 -200 45 -200 45
11014850000 -0.12648116 30.738161 -200 45 -200 45 -200 45
11014962500 -0.12099046 30.56205 -200 45 -200 45 -200 45
11015075000 -0.12692988 30.560343 -200 45 -200 45 -200 45
11015187500 -0.14567238 30.471325 -200 45 -200 45 -200 45
11015300000 -0.10499291 30.497072 -200 45 -200 45 -200 45
11015412500 -0.088696852 30.229177 -200 45 -200 45 -200 45
11015525000 -0.12539418 30.101316 -200 45 -200 45 -200 45
11015637500 -0.108761 30.156342 -200 45 -200 45 -200 45
11015750000 -0.12882893 30.031004 -200 45 -200 45 -200 45
11015862500 -0.13328934 30.014208 -200 45 -200 45 -200 45
11015975000 -0.10659089 30.03867 -200 45 -200 45 -200 45
11016087500 -0.091294713 29.728645 -200 45 -200 45 -200 45
11016200000 -0.10001833 29.791595 -200 45 -200 45 -200 45
11016312500 -0.12346254 29.516672 -200 45 -200 45 -200 45
11016425000 -0.11515639 29.563105 -200 45 -200 45 -200 45
11016537500 -0.12502632 29.360807 -200 45 -200 45 -200 45
11016650000 -0.11516172 29.65617 -200 45 -200 45 -200 45
11016762500 -0.12957415 29.43285 -200 45 -200 45 -200 45
11016875000 -0.12207174 29.096828 -200 45 -200 45 -200 45
11016987500 -0.11995967 29.150122 -200 45 -200 45 -200 45
11017100000 -0.11357038 29.078333 -200 45 -200 45 -200 45
11017212500 -0.1256036 29.045527 -200 45 -200 45 -200 45
11017325000 -0.12300666 29.035578 -200 45 -200 45 -200 45
11017437500 -0.10161205 28.935059 -200 45 -200 45 -200 45
11017550000 -0.090782568 28.899569 -200 45 -200 45 -200 45
11017662500 -0.12145079 28.662445 -200 45 -200 45 -200 45
11017775000 -0.11005629 28.580687 -200 45 -200 45 -200 45
11017887500 -0.10037389 28.53359 -200 45 -200 45 -200 45
11018000000 -0.1181656 28.534121 -200 45 -200 45 -200 45
11018112500 -0.11844888 28.434225 -200 45 -200 45 -200 45
11018225000 -0.11139501 28.425156 -200 45 -200 45 -200 45
11018337500 -0.11586019 28.23044 -200 45 -200 45 -200 45
11018450000 -0.10624314 28.121021 -200 45 -200 45 -200 45
11018562500 -0.10149094 27.96126 -200 45 -200 45 -200 45
11018675000 -0.13063572 28.046843 -200 45 -200 45 -200 45
11018787500 -0.1218859 27.86599 -200 45 -200 45 -200 45
11018900000 -0.12367655 27.811424 -200 45 -200 45 -200 45
11019012500 -0.10107174 27.662806 -200 45 -200 45 -200 45
11019125000 -0.082668051 27.770309 -200 45 -200 45 -200 45
11019237500 -0.10683685 27.537575 -200 45 -200 45 -200 45
11019350000 -0.12186914 27.453133 -200 45 -200 45 -200 45
11019462500 -0.12090732 27.309593 -200 45 -200 45 -200 45
11019575000 -0.10042393 27.391085 -200 45 -200 45 -200 45
11019687500 -0.09985806 27.331524 -200 45 -200 45 -200 45
11019800000 -0.1078352 27.084461 -200 45 -200 45 -200 45
11019912500 -0.1246554 27.008495 -200 45 -200 45 -200 45
11020025000 -0.12694442 27.111723 -200 45 -200 45 -200 45
11020137500 -0.11534218 26.957216 -200 45 -200 45 -200 45
11020250000 -0.12591887 26.963427 -200 45 -200 45 -200 45
11020362500 -0.14311877 26.694181 -200 45 -200 45 -200 45
11020475000 -0.11012804 26.735046 -200 45 -200 45 -200 45
11020587500 -0.091286302 26.649475 -200 45 -200 45 -200 45
11020700000 -0.10442682 26.653128 -200 45 -200 45 -200 45
11020812500 -0.11482868 26.314898 -200 45 -200 45 -200 45
11020925000 -0.11132001 26.322266 -200 45 -200 45 -200 45
11021037500 -0.11492464 26.321743 -200 45 -200 45 -200 45
11021150000 -0.12141976 26.373377 -200 45 -200 45 -200 45
11021262500 -0.11555773 26.318586 -200 45 -200 45 -200 45
11021375000 -0.10434033 26.199995 -200 45 -200 45 -200 45
11021487500 -0.10578902 26.084764 -200 45 -200 45 -200 45
11021600000 -0.088339984 25.870335 -200 45 -200 45 -200 45
11021712500 -0.10430562 25.909193 -200 45 -200 45 -200 45
11021825000 -0.11712434 25.589975 -200 45 -200 45 -200 45
11021937500 -0.11671577 25.831955 -200 45 -200 45 -200 45
11022050000 -0.1109407 25.496969 -200 45 -200 45 -200 45
11022162500 -0.092559293 25.562189 -200 45 -200 45 -200 45
11022275000 -0.076800652 25.562841 -200 45 -200 45 -200 45
11022387500 -0.12961225 25.381269 -200 45 -200 45 -200 45
11022500000 -0.1262954 25.479666 -200 45 -200 45 -200 45
11022612500 -0.12638135 25.3477 -200 45 -200 45 -200 45
11022725000 -0.11020918 25.350657 -200 45 -200 45 -200 45
11022837500 -0.1001576 25.080276 -200 45 -200 45 -200 45
11022950000 -0.10235333 25.06502 -200 45 -200 45 -200 45
11023062500 -0.12107962 25.003498 -200 45 -200 45 -200 45
11023175000 -0.11132892 24.681049 -200 45 -200 45 -200 45
11023287500 -0.11145119 24.689068 -200 45 -200 45 -200 45
11023400000 -0.085240535 24.588726 -200 45 -200 45 -200 45
11023512500 -0.12039771 24.628822 -200 45 -200 45 -200 45
11023625000 -0.11665796 24.664532 -200 45 -200 45 -200 45
11023737500 -0.13583547 24.4662 -200 45 -200 45 -200 45
11023850000 -0.086305074 24.267231 -200 45 -200 45 -200 45
11023962500 -0.096365117 24.386005 -200 45 -200 45 -200 45
11024075000 -0.10850549 24.290676 -200 45 -200 45 -200 45
11024187500 -0.090472601 24.148594 -200 45 -200 45 -200 45
11024300000 -0.078053609 24.07309 -200 45 -200 45 -200 45
11024412500 -0.11263403 23.879982 -200 45 -200 45 -200 45
11024525000 -0.090978235 23.847788 -200 45 -200 45 -200 45
11024637500 -0.097535037 23.571095 -200 45 -200 45 -200 45
11024750000 -0.11785635 23.578259 -200 45 -200 45 -200 45
11024862500 -0.11827996 23.771597 -200 45 -200 45 -200 45
11024975000 -0.10889366 23.59885 -200 45 -200 45 -200 45
11025087500 -0.12410522 23.482702 -200 45 -200 45 -200 45
11025200000 -0.10522935 23.454638 -200 45 -200 45 -200 45
11025312500 -0.098025627 23.063297 -200 45 -200 45 -200 45
11025425000 -0.10104902 23.399601 -200 45 -200 45 -200 45
11025537500 -0.14573477 23.185694 -200 45 -200 45 -200 45
11025650000 -0.10985635 23.050447 -200 45 -200 45 -200 45
11025762500 -0.15064161 23.076807 -200 45 -200 45 -200 45
11025875000 -0.097023703 22.829283 -200 45 -200 45 -200 45
11025987500 -0.081429653 22.730951 -200 45 -200 45 -200 45
11026100000 -0.095830441 22.634947 -200 45 -200 45 -200 45
11026212500 -0.093543388 22.576817 -200 45 -200 45 -200 45
11026325000 -0.09265364 22.35479 -200 45 -200 45 -200 45
11026437500 -0.11205755 22.649603 -200 45 -200 45 -200 45
11026550000 -0.11488225 22.403423 -200 45 -200 45 -200 45
11026662500 -0.1336112 22.464125 -200 45 -200 45 -200 45
11026775000 -0.10141889 22.164856 -200 45 -200 45 -200 45
11026887500 -0.12401418 22.274193 -200 45 -200 45 -200 45
11027000000 -0.11334141 21.919914 -200 45 -200 45 -200 45
11027112500 -0.13878785 22.029594 -200 45 -200 45 -200 45
11027225000 -0.1259931 22.0599 -200 45 -200 45 -200 45
11027337500 -0.089976855 21.86677 -200 45 -200 45 -200 45
11027450000 -0.12703435 21.898588 -200 45 -200 45 -200 45
11027562500 -0.092656031 21.514122 -200 45 -200 45 -200 45
11027675000 -0.081254572 21.719301 -200 45 -200 45 -200 45
11027787500 -0.11069991 21.588699 -200 45 -200 45 -200 45
11027900000 -0.057192825 21.554338 -200 45 -200 45 -200 45
11028012500 -0.10361905 21.393391 -200 45 -200 45 -200 45
11028125000 -0.092741802 21.247183 -200 45 -200 45 -200 45
11028237500 -0.11293614 21.061625 -200 45 -200 45 -200 45
11028350000 -0.11103009 21.394558 -200 45 -200 45 -200 45
11028462500 -0.06907662 21.006556 -200 45 -200 45 -200 45
11028575000 -0.12373883 21.233799 -200 45 -200 45 -200 45
11028687500 -0.10471623 21.104345 -200 45 -200 45 -200 45
11028800000 -0.1259955 20.787195 -200 45 -200 45 -200 45
11028912500 -0.072103746 20.637383 -200 45 -200 45 -200 45
11029025000 -0.10222983 20.535568 -200 45 -200 45 -200 45
11029137500 -0.093169488 20.477945 -200 45 -200 45 -200 45
11029250000 -0.060124036 20.427786 -200 45 -200 45 -200 45
11029362500 -0.12038809 20.374191 -200 45 -200 45 -200 45
11029475000 -0.083480999 20.497253 -200 45 -200 45 -200 45
11029587500 -0.085727371 20.298323 -200 45 -200 45 -200 45
11029700000 -0.091792472 20.424608 -200 45 -200 45 -200 45
11029812500 -0.089547873 20.270041 -200 45 -200 45 -200 45
11029925000 -0.10574487 20.124266 -200 45 -200 45 -200 45
11030037500 -0.12746467 19.906216 -200 45 -200 45 -200 45
11030150000 -0.12176254 19.837435 -200 45 -200 45 -200 45
11030262500 -0.076366171 19.729229 -200 45 -200 45 -200 45
11030375000 -0.044478424 19.592028 -200 45 -200 45 -200 45
11030487500 -0.083917469 19.609135 -200 45 -200 45 -200 45
11030600000 -0.064343065 19.674318 -200 45 -200 45 -200 45
11030712500 -0.12803809 19.320597 -200 45 -200 45 -200 45
11030825000 -0.11638731 19.419037 -200 45 -200 45 -200 45
11030937500 -0.093642294 19.095482 -200 45 -200 45 -200 45
11031050000 -0.043604396 19.072405 -200 45 -200 45 -200 45
11031162500 -0.11344022 18.967995 -200 45 -200 45 -200 45
11031275000 -0.11958471 19.007492 -200 45 -200 45 -200 45
11031387500 -0.072516017 19.055588 -200 45 -200 45 -200 45
11031500000 -0.10094451 18.969637 -200 45 -200 45 -200 45
11031612500 -0.069479771 18.601877 -200 45 -200 45 -200 45
11031725000 -0.067627944 18.663574 -200 45 -200 45 -200 45
11031837500 -0.15839255 18.427855 -200 45 -200 45 -200 45
11031950000 -0.11370797 18.480358 -200 45 -200 45 -200 45
11032062500 -0.092043631 18.560099 -200 45 -200 45 -200 45
11032175000 -0.1072095 18.35372 -200 45 -200 45 -200 45
11032287500 -0.084952436 18.317001 -200 45 -200 45 -200 45
11032400000 -0.12550475 18.273111 -200 45 -200 45 -200 45
11032512500 -0.095018186 18.140711 -200 45 -200 45 -200 45
11032625000 -0.1123544 18.050205 -200 45 -200 45 -200 45
11032737500 -0.1276554 18.237413 -200 45 -200 45 -200 45
11032850000 -0.090170667 18.095753 -200 45 -200 45 -200 45
11032962500 -0.12465605 17.813286 -200 45 -200 45 -200 45
11033075000 -0.089910217 17.917839 -200 45 -200 45 -200 45
11033187500 -0.081628077 17.485233 -200 45 -200 45 -200 45
11033300000 -0.10581524 17.456093 -200 45 -200 45 -200 45
11033412500 -0.09824232 17.588671 -200 45 -200 45 -200 45
11033525000 -0.076824315 17.783945 -200 45 -200 45 -200 45
11033637500 -0.11279749 17.239965 -200 45 -200 45 -200 45
11033750000 -0.11949019 17.442251 -200 45 -200 45 -200 45
11033862500 -0.13992271 17.479498 -200 45 -200 45 -200 45
11033975000 -0.090311624 17.202295 -200 45 -200 45 -200 45
11034087500 -0.071931161 16.797615 -200 45 -200 45 -200 45
11034200000 -0.06611409 17.110062 -200 45 -200 45 -200 45
11034312500 -0.12563376 16.590473 -200 45 -200 45 -200 45
11034425000 -0.092473574 17.145538 -200 45 -200 45 -200 45
11034537500 -0.14053084 16.69619 -200 45 -200 45 -200 45
11034650000 -0.038086608 16.463156 -200 45 -200 45 -200 45
11034762500 -0.076574728 16.717222 -200 45 -200 45 -200 45
11034875000 -0.11703596 16.2031 -200 45 -200 45 -200 45
11034987500 -0.12053089 16.400333 -200 45 -200 45 -200 45
11035100000 -0.094501488 16.352308 -200 45 -200 45 -200 45
11035212500 -0.075317055 16.499189 -200 45 -200 45 -200 45
11035325000 -0.090976477 16.041147 -200 45 -200 45 -200 45
11035437500 -0.095371611 16.365631 -200 45 -200 45 -200 45
11035550000 -0.10139451 16.12513 -200 45 -200 45 -200 45
11035662500 -0.10524354 16.050575 -200 45 -200 45 -200 45
11035775000 -0.139414 15.9354 -200 45 -200 45 -200 45
11035887500 -0.081094623 15.684997 -200 45 -200 45 -200 45
11036000000 -0.089054272 15.589446 -200 45 -200 45 -200 45
11036112500 -0.10942069 15.726502 -200 45 -200 45 -200 45
11036225000 -0.11216364 15.652738 -200 45 -200 45 -200 45
11036337500 -0.075361833 15.455131 -200 45 -200 45 -200 45
11036450000 -0.10643698 15.185553 -200 45 -200 45 -200 45
11036562500 -0.093942955 15.497901 -200 45 -200 45 -200 45
11036675000 -0.10488391 15.824284 -200 45 -200 45 -200 45
11036787500 -0.13475367 14.855065 -200 45 -200 45 -200 45
11036900000 -0.10637771 15.265528 -200 45 -200 45 -200 45
11037012500 -0.088393025 14.800904 -200 45 -200 45 -200 45
11037125000 -0.066216759 14.976996 -200 45 -200 45 -200 45
11037237500 -0.11456908 15.164871 -200 45 -200 45 -200 45
11037350000 -0.13132587 14.975456 -200 45 -200 45 -200 45
11037462500 -0.089577712 14.886151 -200 45 -200 45 -200 45
